!CSV A.01.01
!Agilent Technologies,E8364C,MY43040422,A.09.42.22
!Agilent E8364C: A.09.42.22
!Date: Monday, February 18, 2019 10:56:52
!Source: Standard

BEGIN CH1_DATA
Freq(Hz),S11(REAL),S11(IMAG),S12(REAL),S12(IMAG),S21(REAL),S21(IMAG),S22(REAL),S22(IMAG)
17500000000,0.14351761,-0.2945106,-4.6047416e-010,-5.2938959e-011,-0.0010746596,0.017973162,0.089240104,-0.17849725
17522500000,0.1350314,-0.29404518,-2.5580019e-010,3.9753573e-010,0.0034101075,0.017585572,-0.14360888,0.010965817
17545000000,0.12155546,-0.2995801,2.3688676e-010,4.0606776e-010,0.0091158617,0.015443691,-0.12432501,0.083491094
17567500000,0.10821361,-0.3094424,4.6158957e-010,-1.2654718e-011,0.012445426,0.013007297,0.042100359,0.1190486
17590000000,0.09352003,-0.31615248,2.1945433e-010,-3.9934825e-010,0.016725456,0.0081413817,0.11979817,-0.085746482
17612500000,0.07692451,-0.31498602,-2.3152871e-010,-3.9969389e-010,0.018175034,0.0034178547,-0.06628152,-0.16326934
17635000000,0.059303626,-0.31537834,-4.7748761e-010,9.3898951e-012,0.018256824,-0.00079829287,-0.15742087,0.13381128
17657500000,0.045882314,-0.31170246,-2.2156574e-010,4.4231768e-010,0.017195655,-0.0068928492,0.087485865,0.19784044
17680000000,0.034847531,-0.31153131,3.0037495e-010,3.9342188e-010,0.014317038,-0.010908674,0.16235439,-0.14638184
17702500000,0.026926007,-0.30591524,4.7658583e-010,-8.7661163e-011,0.010474032,-0.01393228,-0.13471152,-0.11199316
17725000000,0.012095356,-0.30224058,1.4069285e-010,-4.4354662e-010,0.0080703944,-0.01667475,-0.12043006,0.14878911
17747500000,0.00043096402,-0.29994223,-3.1133568e-010,-3.3351522e-010,0.0024591084,-0.0178522,0.067862205,0.16991706
17770000000,-0.0058596074,-0.30310845,-4.4416931e-010,1.1648221e-010,-0.0032675625,-0.018389557,0.15510418,-0.093927875
17792500000,-0.01716008,-0.30043942,-1.0076753e-010,4.56087e-010,-0.0067767729,-0.016862513,-0.10673146,-0.14809473
17815000000,-0.031383101,-0.29467729,3.63644e-010,2.9607197e-010,-0.011863408,-0.014716905,-0.2094506,0.14890394
17837500000,-0.045797821,-0.29094529,4.283289e-010,-1.8961856e-010,-0.01630755,-0.01094135,0.11949795,0.17430612
17860000000,-0.061469838,-0.28589165,3.0408571e-011,-4.6077039e-010,-0.018886136,-0.0058452147,0.18900442,-0.1041536
17882500000,-0.078633748,-0.27591589,-3.8699974e-010,-2.4449856e-010,-0.020113349,0.00048194971,-0.14386356,-0.18076557
17905000000,-0.087797239,-0.26145947,-4.0656456e-010,2.1914058e-010,-0.018518068,0.0061968365,-0.20615526,0.17382728
17927500000,-0.095310837,-0.25421113,-2.8605254e-012,4.8026644e-010,-0.015525836,0.011056753,0.15754773,0.22997968
17950000000,-0.10089336,-0.23902032,4.414811e-010,2.2802943e-010,-0.01196085,0.014794927,0.21718247,-0.15675995
17972500000,-0.10393628,-0.22984666,3.9764597e-010,-3.0102196e-010,-0.0076309261,0.016874425,-0.2034307,-0.1591005
17995000000,-0.10492121,-0.2206471,-8.5547625e-011,-4.759152e-010,-0.0033537599,0.018520862,-0.24368611,0.2484441
18017500000,-0.11342854,-0.21411555,-4.5255327e-010,-1.41436e-010,0.0010816347,0.018528037,0.21228686,0.20217822
18040000000,-0.1207654,-0.21061717,-3.3318004e-010,3.2862704e-010,0.0075850687,0.018736223,0.19465347,-0.21172398
18062500000,-0.12638198,-0.20309743,1.3611268e-010,4.4526638e-010,0.012002137,0.015532173,-0.30679086,-0.14902061
18085000000,-0.13060795,-0.19091846,4.6646859e-010,8.8774009e-011,0.015996065,0.011386354,-0.15946248,0.28176269
18107500000,-0.1441575,-0.17736155,2.9344763e-010,-3.8495673e-010,0.018986126,0.007278725,0.24006477,0.1778426
18130000000,-0.14808229,-0.16394185,-2.1992648e-010,-4.2663215e-010,0.020936174,0.0005966734,0.13604982,-0.26475257
18152500000,-0.1548564,-0.14775407,-4.6436097e-010,-6.2247859e-012,0.019956434,-0.0050909761,-0.31179062,-0.1161499
18175000000,-0.1529343,-0.1340555,-2.3679769e-010,4.0171619e-010,0.018061722,-0.010641641,-0.14663428,0.31964472
18197500000,-0.15210089,-0.11565829,2.4649546e-010,4.1944137e-010,0.014143321,-0.015504225,0.31623635,0.14690922
18220000000,-0.14927958,-0.10039067,5.0546861e-010,-3.4510894e-011,0.0090499269,-0.018198226,0.045863673,-0.32010335
18242500000,-0.14085622,-0.10056468,1.9668234e-010,-4.646705e-010,0.0037655416,-0.020412875,-0.36249101,-0.034106117
18265000000,-0.13492417,-0.098003767,-3.1975289e-010,-3.8533912e-010,-0.0017867703,-0.020334346,-0.039777637,0.34355748
18287500000,-0.13473248,-0.090916574,-4.7557291e-010,1.0014146e-010,-0.0071926382,-0.019510319,0.28864869,-0.0084760506
18310000000,-0.13408576,-0.081756487,-1.4075599e-010,4.4967566e-010,-0.013176954,-0.017177885,-0.029884592,-0.2594237
18332500000,-0.13665421,-0.074344575,3.2253131e-010,3.482577e-010,-0.017050706,-0.012629023,-0.25535706,0.0082826549
18355000000,-0.14100276,-0.060548384,4.7339443e-010,-1.1979055e-010,-0.020065261,-0.006410195,-0.027888007,0.30752239
18377500000,-0.13417397,-0.050910231,1.0108913e-010,-4.9089355e-010,-0.020706909,-0.0015100924,0.26541251,0.014506529
18400000000,-0.13222064,-0.044220679,-3.8997638e-010,-2.9463579e-010,-0.020521145,0.0046598283,-0.062049452,-0.24119376
18422500000,-0.12255691,-0.029034602,-4.2345788e-010,1.9503736e-010,-0.018624295,0.010284873,-0.28084111,0.052109152
18445000000,-0.10923895,-0.016575513,-4.3965241e-011,4.6122076e-010,-0.014224472,0.014414291,0.013701826,0.2506474
18467500000,-0.10175987,-0.013586385,3.9326981e-010,2.7216365e-010,-0.010712757,0.018689586,0.21568395,-0.022895891
18490000000,-0.091754898,-0.013067866,4.3904924e-010,-2.3026638e-010,-0.0048304694,0.020180125,-0.080446869,-0.2046399
18512500000,-0.081245929,-0.011865598,-5.9459221e-012,-5.0583088e-010,0.00057423004,0.021667758,-0.2242461,0.030519519
18535000000,-0.077336401,-0.010546154,-4.4998585e-010,-2.173432e-010,0.0065220715,0.020134848,0.021427233,0.2165073
18557500000,-0.075847439,-0.00848094,-3.8747494e-010,2.8318095e-010,0.011432847,0.01816757,0.20780028,0.011256973
18580000000,-0.074060611,-0.0083056493,5.0349957e-011,4.5588108e-010,0.016040398,0.014532091,-0.09104538,-0.17910068
18602500000,-0.071023799,-0.0062559075,4.1766254e-010,2.0049309e-010,0.020474719,0.0093272068,-0.20568231,0.0071511972
18625000000,-0.061058808,-0.00019228003,4.0017586e-010,-2.7981689e-010,0.021792436,0.0037658238,0.014039508,0.22257139
18647500000,-0.052253067,0.0099477507,-7.557998e-011,-5.0657234e-010,0.022484375,-0.0031817316,0.17820157,0.041077673
18670000000,-0.048877478,0.013079138,-4.9082011e-010,-1.383882e-010,0.020530367,-0.009490218,-0.095590234,-0.23298258
18692500000,-0.038141742,0.014043802,-3.2897357e-010,3.7042966e-010,0.016715292,-0.014388139,-0.17345655,0.075378373
18715000000,-0.025857752,0.0086510358,1.7086957e-010,4.4711568e-010,0.012287168,-0.019226331,-0.094891004,0.14735508
18737500000,-0.020298956,0.0033889716,4.7076187e-010,5.9811822e-011,0.0062139779,-0.021246074,0.23080218,0.0078769168
18760000000,-0.01419891,-0.00075519033,2.7983765e-010,-3.9059364e-010,0.00067035778,-0.02288305,-0.0043327366,-0.2411285
18782500000,-0.010902706,-0.0020914346,-2.2391744e-010,-4.3905685e-010,-0.0061330898,-0.021966094,-0.24717738,0.057502359
18805000000,-0.0069219116,-0.0083320085,-5.0619525e-010,1.1225906e-011,-0.011383059,-0.01968373,-0.0011873678,0.22801864
18827500000,-0.0085222758,-0.012388374,-1.9541929e-010,4.5803053e-010,-0.015877452,-0.016071847,0.20389125,-0.025521375
18850000000,-0.0052047474,-0.0096207131,3.055316e-010,3.6374828e-010,-0.021260059,-0.011264222,-0.033929382,-0.21677652
18872500000,-0.0034164009,-0.0092423139,4.5082027e-010,-8.1931573e-011,-0.022446722,-0.0045938995,-0.23067009,0.052354205
18895000000,0.001338763,-0.014822877,1.6192345e-010,-4.338461e-010,-0.024073558,0.001575129,-0.021016082,0.23702134
18917500000,0.0050626984,-0.015159643,-3.127851e-010,-3.6604153e-010,-0.022885611,0.0088095265,0.23428182,-0.045161415
18940000000,0.012848284,-0.018944254,-4.8626447e-010,1.1111456e-010,-0.01874478,0.01556972,-0.033359855,-0.17360853
18962500000,0.015334353,-0.029955558,-1.212466e-010,4.8669424e-010,-0.013621638,0.01944468,-0.29371029,0.022227246
18985000000,0.018503882,-0.034631208,3.7902395e-010,3.3412065e-010,-0.0080682123,0.02326837,0.017945204,0.24394518
19007500000,0.019541573,-0.036086291,4.6835336e-010,-1.7525405e-010,-0.00037064258,0.024072776,0.24171413,-0.0021050388
19030000000,0.016035069,-0.044090223,7.2453078e-011,-4.90055e-010,0.006152025,0.022243178,-0.085322164,-0.25230485
19052500000,0.011404399,-0.048351903,-3.9513298e-010,-3.1496972e-010,0.010664155,0.020004613,-0.2818678,0.024237111
19075000000,0.0088448441,-0.052793838,-4.8721577e-010,2.0831611e-010,0.016671287,0.016609132,0.023761341,0.30812064
19097500000,0.0098645119,-0.057398938,-2.1032183e-011,5.4423144e-010,0.020488892,0.011093398,0.26476234,-0.049488872
19120000000,0.013639586,-0.052434091,4.6696119e-010,2.4746769e-010,0.021834418,0.0057125916,-0.12213329,-0.32178897
19142500000,0.011278455,-0.054185133,4.2344298e-010,-2.8345837e-010,0.023745906,0.0002257278,-0.2899524,0.12775388
19165000000,0.009491398,-0.060890716,-3.8157127e-011,-5.0099347e-010,0.022962345,-0.0067371251,0.0075938827,0.22521304
19187500000,0.0085013397,-0.066210829,-4.5422333e-010,-2.082714e-010,0.020713266,-0.013155716,0.38130879,-0.075849965
19210000000,0.0065329447,-0.072034523,-4.0418097e-010,3.1121034e-010,0.015986333,-0.018409176,-0.12340893,-0.34069687
19232500000,0.0043492336,-0.079982802,9.4968838e-011,4.9728632e-010,0.010230939,-0.022971006,-0.3678295,0.19870734
19255000000,-0.0027425806,-0.081266105,4.8659393e-010,1.4477171e-010,0.0034731897,-0.024860531,0.16067339,0.34965882
19277500000,-0.0094773918,-0.082254179,3.3973599e-010,-3.6045472e-010,-0.0038604569,-0.025281617,0.32060194,-0.22487405
19300000000,-0.011469536,-0.082998075,-1.4416979e-010,-4.5847531e-010,-0.010549353,-0.022530757,-0.26655987,-0.28860235
19322500000,-0.016549971,-0.08028923,-4.7614224e-010,-1.112813e-010,-0.017192546,-0.019684123,-0.30811051,0.26520985
19345000000,-0.022987356,-0.079311185,-3.4311096e-010,3.9182485e-010,-0.021465909,-0.013554788,0.26030555,0.29116035
19367500000,-0.022173306,-0.077782303,2.1606686e-010,4.9282822e-010,-0.024643593,-0.0068465779,0.22827855,-0.29241115
19390000000,-0.022706544,-0.076483175,5.3421206e-010,2.216834e-011,-0.025464619,-9.8218858e-005,-0.29409572,-0.2208887
19412500000,-0.025890084,-0.078783266,2.6071637e-010,-4.4979595e-010,-0.023812765,0.0071149613,-0.26031592,0.32657263
19435000000,-0.030601341,-0.083580352,-2.6924607e-010,-4.4357376e-010,-0.021644775,0.013461797,0.31482264,0.23618659
19457500000,-0.03189173,-0.085727222,-5.2133203e-010,3.1563131e-011,-0.017487593,0.019119503,0.14864762,-0.33724368
19480000000,-0.039055727,-0.093274102,-2.1632483e-010,4.7577681e-010,-0.010465762,0.023349298,-0.38521576,-0.14064214
19502500000,-0.052149341,-0.085733786,3.2949041e-010,4.2377907e-010,-0.004185108,0.024779534,-0.15315016,0.35821342
19525000000,-0.059902523,-0.079831876,5.2690868e-010,-1.2147405e-010,0.0021206292,0.026359126,0.33455056,0.099709347
19547500000,-0.061424624,-0.075053155,1.1599381e-010,-5.0154242e-010,0.01046141,0.024137119,0.050286755,-0.34898883
19570000000,-0.064555958,-0.070800483,-3.6014172e-010,-3.3300179e-010,0.017173417,0.020007078,-0.34275374,-0.01206072
19592500000,-0.060992815,-0.06354145,-4.7986154e-010,1.3423646e-010,0.021266773,0.014873087,-0.10147408,0.34243107
19615000000,-0.062496468,-0.063482568,-1.1035108e-010,5.1933224e-010,0.024758212,0.0071712104,0.32039052,-0.042086132
19637500000,-0.066626929,-0.059599414,4.3547696e-010,3.4484293e-010,0.026101219,0.00059001811,0.0019084656,-0.22514778
19660000000,-0.065583661,-0.059514016,4.934077e-010,-2.4535396e-010,0.023917543,-0.0058901315,-0.35743585,0.027985023
19682500000,-0.068808049,-0.061054915,2.0726426e-013,-5.4943378e-010,0.022150144,-0.012292945,-0.029055923,0.28968063
19705000000,-0.072014146,-0.061624885,-4.7649401e-010,-2.3430721e-010,0.01849729,-0.017529728,0.25929564,-0.051768038
19727500000,-0.076154076,-0.056214474,-4.1436291e-010,2.8840161e-010,0.012907067,-0.022510154,-0.1081951,-0.25766182
19750000000,-0.083939187,-0.054943554,3.3829065e-011,5.0224241e-010,0.0065333527,-0.025413282,-0.2722165,0.07280647
19772500000,-0.085877746,-0.041454822,4.7734922e-010,2.2594343e-010,-0.00093595171,-0.026402403,0.056597069,0.24085014
19795000000,-0.090106495,-0.030453641,4.2415868e-010,-3.4218922e-010,-0.0081891166,-0.025764434,0.16113541,-0.078885756
19817500000,-0.085882053,-0.024411028,-1.216959e-010,-5.2091675e-010,-0.015955107,-0.021570353,-0.14507574,-0.2355426
19840000000,-0.082259446,-0.021095065,-5.0378973e-010,-1.340173e-010,-0.02098209,-0.017053165,-0.17897564,0.14794256
19862500000,-0.073800005,-0.013992473,-3.5869507e-010,3.6853581e-010,-0.025216147,-0.010099642,0.046306916,0.14853108
19885000000,-0.071076706,-0.010910628,1.4796567e-010,4.9699428e-010,-0.027075689,-0.002234973,0.090648465,-0.12717579
19907500000,-0.074500106,-0.012155229,5.1987797e-010,1.1088095e-010,-0.025624262,0.0055355825,-0.14257792,-0.13491243
19930000000,-0.077491857,-0.013958116,3.5291373e-010,-4.2224685e-010,-0.024469735,0.01165364,-0.13937314,0.1251175
19952500000,-0.075608984,-0.011062273,-2.3303406e-010,-5.0996068e-010,-0.019535407,0.017536115,0.084871195,0.057905391
19975000000,-0.077336714,-0.0038976194,-5.451064e-010,-1.15812e-011,-0.01414388,0.02249264,0.013536038,-0.13493901
19997500000,-0.08224187,0.0051209056,-2.5783953e-010,4.5370663e-010,-0.0076418216,0.025897883,-0.15888956,-0.027418211
20020000000,-0.07878913,0.013819821,2.6926503e-010,4.4640217e-010,-0.00038801265,0.026898211,-0.01088764,0.08079768
20042500000,-0.078906916,0.01539846,5.3373345e-010,-2.1773782e-011,0.0066878945,0.026448447,0.011603978,-0.050555516
20065000000,-0.068164937,0.022063483,2.331689e-010,-4.9837839e-010,0.01524608,0.022858424,-0.041405078,-0.13614517
20087500000,-0.057064485,0.028253164,-3.513547e-010,-4.3849277e-010,0.020166969,0.018276978,-0.071450785,0.10490499
20110000000,-0.048844311,0.030773703,-5.4103039e-010,1.2742206e-010,0.025064582,0.011822021,0.1350843,-0.0024776121
20132500000,-0.045641743,0.033825334,-1.2885745e-010,5.1667992e-010,0.027317362,0.0036868723,-0.085714035,-0.12510362
20155000000,-0.044091925,0.029401723,3.7292094e-010,3.5783235e-010,0.027082456,-0.0034218878,-0.18721555,0.092427686
20177500000,-0.045231342,0.025672244,5.0532095e-010,-1.5254159e-010,0.025136871,-0.011405232,0.11435559,0.081347518
20200000000,-0.044669058,0.026749104,1.0688864e-010,-5.2695343e-010,0.02063329,-0.016696434,0.11052205,-0.17958623
20222500000,-0.037632268,0.029954128,-4.2366485e-010,-3.3382522e-010,0.015477456,-0.021915579,-0.25308904,-0.080366202
20245000000,-0.037311718,0.037146095,-4.8525051e-010,2.2732524e-010,0.0088697309,-0.025750872,-0.092022948,0.20522697
20267500000,-0.035434075,0.045941036,-2.0781162e-011,5.2256749e-010,0.00036904722,-0.026345197,0.24104626,0.049177118
20290000000,-0.031902671,0.051526174,4.2753354e-010,2.6707056e-010,-0.0049564256,-0.024867482,-0.011287638,-0.2709569
20312500000,-0.024217857,0.047450397,4.5288906e-010,-2.2026594e-010,-0.012142981,-0.023582071,-0.36193863,-0.044737451
20335000000,-0.010268529,0.044708483,3.8325672e-011,-5.4183458e-010,-0.019012732,-0.019995904,-0.023630941,0.30074757
20357500000,0.0056739659,0.047166262,-4.9286536e-010,-2.8441871e-010,-0.02358151,-0.012600541,0.37316427,-0.087223597
20380000000,0.0080806203,0.041678704,-4.7427356e-010,3.1437272e-010,-0.026174879,-0.00637013,-0.10964947,-0.39493603
20402500000,0.011740164,0.033182219,5.6370419e-011,5.5805438e-010,-0.026250467,0.0017717388,-0.42636442,0.11662778
20425000000,0.0078994976,0.030311486,5.2249932e-010,2.116553e-010,-0.025100594,0.0087121502,0.16965382,0.40650064
20447500000,0.0099038351,0.026850622,4.2368628e-010,-3.6358436e-010,-0.02166695,0.015917256,0.37893885,-0.27312556
20470000000,0.01092297,0.027460981,-1.1765408e-010,-5.3996879e-010,-0.015762158,0.01989604,-0.29413912,-0.36870593
20492500000,0.0095503321,0.029610701,-5.4520027e-010,-1.5373389e-010,-0.010455296,0.023691859,-0.40446889,0.2080369
20515000000,0.017906263,0.035044085,-3.8489875e-010,4.293243e-010,-0.0041802907,0.026700718,0.35021758,0.47572961
20537500000,0.026769331,0.034700423,2.3511801e-010,5.1533372e-010,0.0053717708,0.025015669,0.33243665,-0.44784063
20560000000,0.033010997,0.036364116,5.2139376e-010,3.9542689e-011,0.010080068,0.022378717,-0.49537182,-0.35486984
20582500000,0.044338353,0.032836046,3.065676e-010,-4.2117942e-010,0.015636593,0.019864393,-0.35129252,0.48101485
20605000000,0.053814463,0.019035481,-2.3655194e-010,-4.9164878e-010,0.022537664,0.014715686,0.52645248,0.22786058
20627500000,0.051520064,0.01471317,-5.4684762e-010,-1.7964312e-011,0.023969652,0.0073287259,0.19908126,-0.58186895
20650000000,0.049290374,0.0028687783,-2.7765817e-010,4.7470339e-010,0.025227906,0.00051343744,-0.57894051,-0.18422522
20672500000,0.050322879,-0.0062673353,2.9112568e-010,4.784218e-010,0.024797611,-0.0054629827,-0.19137423,0.55457097
20695000000,0.045462839,-0.0064853355,5.5859317e-010,-5.1339724e-011,0.022549333,-0.012898838,0.59059882,0.11958124
20717500000,0.043495771,-0.0060793222,2.0577766e-010,-4.8809834e-010,0.017300874,-0.018186141,0.068067342,-0.66849172
20740000000,0.04348309,-0.0075812223,-3.1022523e-010,-4.2869078e-010,0.012052708,-0.021166326,-0.67932922,-0.046774272
20762500000,0.045200828,-0.010187564,-5.6746779e-010,6.8549846e-011,0.0064977775,-0.024839895,0.0030313942,0.64673996
20785000000,0.051511884,-0.0067305202,-1.7672323e-010,5.6922322e-010,-0.0018520204,-0.025786223,0.64267212,-0.10817391
20807500000,0.056529675,-0.013646589,4.2269468e-010,3.890753e-010,-0.0081074052,-0.022905182,-0.13195305,-0.69808435
20830000000,0.058476664,-0.020883659,5.2904997e-010,-1.9187621e-010,-0.013429852,-0.020365767,-0.65506071,0.16753818
20852500000,0.055448696,-0.025919966,7.9609742e-011,-5.5338062e-010,-0.018714871,-0.01790365,0.21329474,0.64498597
20875000000,0.065144666,-0.03853853,-4.5882453e-010,-3.2442898e-010,-0.024553796,-0.010141827,0.60234118,-0.30481347
20897500000,0.058425639,-0.04639538,-4.9612608e-010,2.4607469e-010,-0.024735792,-0.0028992628,-0.35314274,-0.62807333
20920000000,0.045831826,-0.047334861,-1.3682905e-011,5.7933702e-010,-0.025166843,0.0039319214,-0.57282841,0.35560456
20942500000,0.046827465,-0.055293757,5.359696e-010,2.6057115e-010,-0.022636531,0.011287336,0.36136958,0.51401287
20965000000,0.039930448,-0.058203887,4.2982853e-010,-3.4218761e-010,-0.017981803,0.015621577,0.59989971,-0.5017674
20987500000,0.033370644,-0.054859098,-8.1784371e-011,-5.1445653e-010,-0.013317497,0.019632669,-0.55263287,-0.46270511
21010000000,0.034981634,-0.051686868,-4.6448331e-010,-2.0263599e-010,-0.0068987519,0.022486703,-0.41789329,0.59374744
21032500000,0.036418494,-0.061268929,-4.4150655e-010,3.2344435e-010,-0.0014502747,0.024123084,0.563766,0.31355864
21055000000,0.035863142,-0.061881505,9.2721976e-011,5.53394e-010,0.0048196996,0.022581121,0.28076258,-0.63666105
21077500000,0.03625061,-0.06087669,5.4434163e-010,1.6590811e-010,0.011066396,0.0206833,-0.62595814,-0.20858842
21100000000,0.035867214,-0.069667965,3.8969566e-010,-4.1252327e-010,0.015099796,0.017419551,-0.15858124,0.61569071
21122500000,0.028214596,-0.073028982,-1.9605194e-010,-5.2683941e-010,0.020297086,0.013398583,0.59454149,0.085963994
21145000000,0.023929687,-0.078586817,-5.3169424e-010,-7.3327629e-011,0.023254141,0.0074832495,0.021304473,-0.62402153
21167500000,0.02086523,-0.08050286,-3.2958072e-010,4.1730705e-010,0.025099188,0.00035973219,-0.5899626,0.084487692
21190000000,0.0075529008,-0.079641625,2.1532143e-010,5.27698e-010,0.024879228,-0.0057984241,0.036387201,0.48749316
21212500000,-0.00094146677,-0.076832488,5.868066e-010,3.3419812e-011,0.021371964,-0.014180847,0.54166394,-0.14146563
21235000000,0.00082089606,-0.074509658,2.7592584e-010,-5.0800597e-010,0.015548026,-0.019063402,-0.23467462,-0.3984212
21257500000,-0.0025283943,-0.07224261,-2.9852082e-010,-4.7334281e-010,0.010612614,-0.021651193,-0.41094083,0.12826069
21280000000,-0.0066528134,-0.065399997,-5.5972199e-010,2.1581997e-011,0.0043582218,-0.024300184,0.14366275,0.40909612
